T5F78 000:005.414   SEGGER J-Link V7.82 Log File
T5F78 000:005.515   DLL Compiled: Oct 13 2022 13:32:51
T5F78 000:005.520   Logging started @ 2026-07-24 08:05
T5F78 000:005.524 - 5.526ms
T5F78 000:005.532 JLINK_SetWarnOutHandler(...)
T5F78 000:005.538 - 0.007ms
T5F78 000:005.543 JLINK_OpenEx(...)
T5F78 000:007.495   Firmware: J-Link V9 compiled May  7 2021 16:26:12
T5F78 000:008.148   Firmware: J-Link V9 compiled May  7 2021 16:26:12
T5F78 000:008.286   Decompressing FW timestamp took 116 us
T5F78 000:019.231   Hardware: V9.40
T5F78 000:019.258   S/N: 69403720
T5F78 000:019.264   OEM: SEGGER
T5F78 000:019.270   Feature(s): RDI, GDB, FlashDL, FlashBP, JFlash
T5F78 000:022.247   TELNET listener socket opened on port 19021
T5F78 000:022.337   WEBSRV WEBSRV_Init(): Starting webserver thread(s)
T5F78 000:022.480   WEBSRV Webserver running on local port 19080
T5F78 000:025.510 - 19.980ms returns "O.K."
T5F78 000:025.547 JLINK_GetEmuCaps()
T5F78 000:025.553 - 0.008ms returns 0xB9FF7BBF
T5F78 000:025.560 JLINK_TIF_GetAvailable(...)
T5F78 000:026.099 - 0.548ms
T5F78 000:026.120 JLINK_SetErrorOutHandler(...)
T5F78 000:026.125 - 0.007ms
T5F78 000:026.167 JLINK_ExecCommand("ProjectFile = "E:\__WDC\CommBoard_031_f4\boot\MDK-ARM\JLinkSettings.ini"", ...). 
T5F78 000:036.735 - 10.581ms returns 0x00
T5F78 000:041.788 JLINK_ExecCommand("Device = STM32F446RETx", ...). 
T5F78 000:046.368   Device "STM32F446RE" selected.
T5F78 000:046.821 - 5.017ms returns 0x00
T5F78 000:046.836 JLINK_ExecCommand("DisableConnectionTimeout", ...). 
T5F78 000:046.845 - 0.004ms returns 0x01
T5F78 000:046.850 JLINK_GetHardwareVersion()
T5F78 000:046.855 - 0.006ms returns 94000
T5F78 000:046.866 JLINK_GetDLLVersion()
T5F78 000:046.870 - 0.006ms returns 78200
T5F78 000:046.875 JLINK_GetOEMString(...)
T5F78 000:046.880 JLINK_GetFirmwareString(...)
T5F78 000:046.885 - 0.006ms
T5F78 000:061.847 JLINK_GetDLLVersion()
T5F78 000:061.871 - 0.026ms returns 78200
T5F78 000:061.877 JLINK_GetCompileDateTime()
T5F78 000:061.881 - 0.006ms
T5F78 000:068.342 JLINK_GetFirmwareString(...)
T5F78 000:068.366 - 0.026ms
T5F78 000:074.057 JLINK_GetHardwareVersion()
T5F78 000:074.080 - 0.025ms returns 94000
T5F78 000:079.092 JLINK_GetSN()
T5F78 000:079.109 - 0.019ms returns 69403720
T5F78 000:084.481 JLINK_GetOEMString(...)
T5F78 000:094.712 JLINK_TIF_Select(JLINKARM_TIF_SWD)
T5F78 000:097.308 - 2.622ms returns 0x00
T5F78 000:097.341 JLINK_HasError()
T5F78 000:097.359 JLINK_SetSpeed(3000)
T5F78 000:097.722 - 0.378ms
T5F78 000:097.744 JLINK_GetId()
T5F78 000:103.622   InitTarget() start
T5F78 000:103.645    J-Link Script File: Executing InitTarget()
T5F78 000:123.109   InitTarget() end
T5F78 000:130.513   Found SW-DP with ID 0x2BA01477
T5F78 000:141.778   DPIDR: 0x2BA01477
T5F78 000:147.266   CoreSight SoC-400 or earlier
T5F78 000:153.105   Scanning AP map to find all available APs
T5F78 000:160.371   AP[1]: Stopped AP scan as end of AP map has been reached
T5F78 000:165.906   AP[0]: AHB-AP (IDR: 0x24770011)
T5F78 000:171.726   Iterating through AP map to find AHB-AP to use
T5F78 000:179.307   AP[0]: Core found
T5F78 000:184.352   AP[0]: AHB-AP ROM base: 0xE00FF000
T5F78 000:191.978   CPUID register: 0x410FC241. Implementer code: 0x41 (ARM)
T5F78 000:197.967   Found Cortex-M4 r0p1, Little endian.
T5F78 000:199.324   -- Max. mem block: 0x00010E60
T5F78 000:200.056   CPU_ReadMem(4 bytes @ 0xE000EDF0)
T5F78 000:201.140   CPU_ReadMem(4 bytes @ 0xE0002000)
T5F78 000:208.241   FPUnit: 6 code (BP) slots and 2 literal slots
T5F78 000:208.274   CPU_ReadMem(4 bytes @ 0xE000EDFC)
T5F78 000:209.180   CPU_WriteMem(4 bytes @ 0xE000EDFC)
T5F78 000:209.903   CPU_ReadMem(4 bytes @ 0xE0001000)
T5F78 000:210.714   CPU_WriteMem(4 bytes @ 0xE0001000)
T5F78 000:211.484   CPU_ReadMem(4 bytes @ 0xE000ED88)
T5F78 000:212.302   CPU_WriteMem(4 bytes @ 0xE000ED88)
T5F78 000:213.071   CPU_ReadMem(4 bytes @ 0xE000ED88)
T5F78 000:213.616   CPU_WriteMem(4 bytes @ 0xE000ED88)
T5F78 000:219.265   CoreSight components:
T5F78 000:225.649   ROMTbl[0] @ E00FF000
T5F78 000:225.722   CPU_ReadMem(64 bytes @ 0xE00FF000)
T5F78 000:227.378   CPU_ReadMem(32 bytes @ 0xE000EFE0)
T5F78 000:234.106   [0][0]: E000E000 CID B105E00D PID 000BB00C SCS-M7
T5F78 000:234.137   CPU_ReadMem(32 bytes @ 0xE0001FE0)
T5F78 000:242.226   [0][1]: E0001000 CID B105E00D PID 003BB002 DWT
T5F78 000:242.261   CPU_ReadMem(32 bytes @ 0xE0002FE0)
T5F78 000:249.506   [0][2]: E0002000 CID B105E00D PID 002BB003 FPB
T5F78 000:249.541   CPU_ReadMem(32 bytes @ 0xE0000FE0)
T5F78 000:257.346   [0][3]: E0000000 CID B105E00D PID 003BB001 ITM
T5F78 000:257.375   CPU_ReadMem(32 bytes @ 0xE0040FE0)
T5F78 000:265.539   [0][4]: E0040000 CID B105900D PID 000BB9A1 TPIU
T5F78 000:265.572   CPU_ReadMem(32 bytes @ 0xE0041FE0)
T5F78 000:272.900   [0][5]: E0041000 CID B105900D PID 000BB925 ETM
T5F78 000:273.640 - 175.918ms returns 0x2BA01477
T5F78 000:273.684 JLINK_GetDLLVersion()
T5F78 000:273.692 - 0.010ms returns 78200
T5F78 000:273.697 JLINK_CORE_GetFound()
T5F78 000:273.702 - 0.006ms returns 0xE0000FF
T5F78 000:273.707 JLINK_GetDebugInfo(0x100 = JLINKARM_ROM_TABLE_ADDR_INDEX)
T5F78 000:273.721   Value=0xE00FF000
T5F78 000:273.727 - 0.022ms returns 0
T5F78 000:279.877 JLINK_GetDebugInfo(0x100 = JLINKARM_ROM_TABLE_ADDR_INDEX)
T5F78 000:279.905   Value=0xE00FF000
T5F78 000:279.911 - 0.036ms returns 0
T5F78 000:279.917 JLINK_GetDebugInfo(0x101 = JLINKARM_DEBUG_INFO_ETM_ADDR_INDEX)
T5F78 000:279.921   Value=0xE0041000
T5F78 000:279.927 - 0.012ms returns 0
T5F78 000:279.938 JLINK_ReadMemEx(0xE0041FD0, 0x20 Bytes, Flags = 0x02000004)
T5F78 000:279.968   CPU_ReadMem(32 bytes @ 0xE0041FD0)
T5F78 000:281.335   Data:  04 00 00 00 00 00 00 00 00 00 00 00 00 00 00 00 ...
T5F78 000:281.363 - 1.427ms returns 32 (0x20)
T5F78 000:281.373 JLINK_GetDebugInfo(0x102 = JLINKARM_DEBUG_INFO_MTB_ADDR_INDEX)
T5F78 000:281.378   Value=0x00000000
T5F78 000:281.384 - 0.012ms returns 0
T5F78 000:281.389 JLINK_GetDebugInfo(0x103 = JLINKARM_DEBUG_INFO_TPIU_ADDR_INDEX)
T5F78 000:281.393   Value=0xE0040000
T5F78 000:281.399 - 0.011ms returns 0
T5F78 000:281.403 JLINK_GetDebugInfo(0x104 = JLINKARM_DEBUG_INFO_ITM_ADDR_INDEX)
T5F78 000:281.408   Value=0xE0000000
T5F78 000:281.413 - 0.011ms returns 0
T5F78 000:281.418 JLINK_GetDebugInfo(0x105 = JLINKARM_DEBUG_INFO_DWT_ADDR_INDEX)
T5F78 000:281.422   Value=0xE0001000
T5F78 000:281.428 - 0.011ms returns 0
T5F78 000:281.432 JLINK_GetDebugInfo(0x106 = JLINKARM_DEBUG_INFO_FPB_ADDR_INDEX)
T5F78 000:281.436   Value=0xE0002000
T5F78 000:281.442 - 0.012ms returns 0
T5F78 000:281.447 JLINK_GetDebugInfo(0x107 = JLINKARM_DEBUG_INFO_NVIC_ADDR_INDEX)
T5F78 000:281.451   Value=0xE000E000
T5F78 000:281.457 - 0.011ms returns 0
T5F78 000:281.461 JLINK_GetDebugInfo(0x10C = JLINKARM_DEBUG_INFO_DBG_ADDR_INDEX)
T5F78 000:281.466   Value=0xE000EDF0
T5F78 000:281.471 - 0.012ms returns 0
T5F78 000:281.476 JLINK_GetDebugInfo(0x01 = Unknown)
T5F78 000:281.482   Value=0x00000001
T5F78 000:281.488 - 0.013ms returns 0
T5F78 000:281.493 JLINK_ReadMemU32(0xE000ED00, 0x1 Items)
T5F78 000:281.505   CPU_ReadMem(4 bytes @ 0xE000ED00)
T5F78 000:282.630   Data:  41 C2 0F 41
T5F78 000:282.658   Debug reg: CPUID
T5F78 000:282.663 - 1.172ms returns 1 (0x1)
T5F78 000:282.673 JLINK_GetDebugInfo(0x10F = JLINKARM_DEBUG_INFO_HAS_CORTEX_M_SECURITY_EXT_INDEX)
T5F78 000:282.679   Value=0x00000000
T5F78 000:282.684 - 0.013ms returns 0
T5F78 000:282.690 JLINK_HasError()
T5F78 000:282.695 JLINK_SetResetType(JLINKARM_CM3_RESET_TYPE_NORMAL)
T5F78 000:282.700 - 0.006ms returns JLINKARM_CM3_RESET_TYPE_NORMAL
T5F78 000:282.705 JLINK_Reset()
T5F78 000:282.726   CPU is running
T5F78 000:282.735   CPU_WriteMem(4 bytes @ 0xE000EDF0)
T5F78 000:283.765   CPU is running
T5F78 000:283.796   CPU_WriteMem(4 bytes @ 0xE000EDFC)
T5F78 000:293.028   Reset: Halt core after reset via DEMCR.VC_CORERESET.
T5F78 000:300.341   Reset: Reset device via AIRCR.SYSRESETREQ.
T5F78 000:300.371   CPU is running
T5F78 000:300.380   CPU_WriteMem(4 bytes @ 0xE000ED0C)
T5F78 000:354.454   CPU_ReadMem(4 bytes @ 0xE000EDF0)
T5F78 000:355.401   CPU_ReadMem(4 bytes @ 0xE000EDF0)
T5F78 000:356.496   CPU is running
T5F78 000:356.538   CPU_WriteMem(4 bytes @ 0xE000EDF0)
T5F78 000:357.435   CPU is running
T5F78 000:357.463   CPU_WriteMem(4 bytes @ 0xE000EDFC)
T5F78 000:363.541   CPU_ReadMem(4 bytes @ 0xE000EDF0)
T5F78 000:368.711   CPU_WriteMem(4 bytes @ 0xE0002000)
T5F78 000:369.480   CPU_ReadMem(4 bytes @ 0xE000EDFC)
T5F78 000:370.296   CPU_ReadMem(4 bytes @ 0xE0001000)
T5F78 000:371.199 - 88.519ms
T5F78 000:371.259 JLINK_Halt()
T5F78 000:371.274 - 0.021ms returns 0x00
T5F78 000:371.289 JLINK_ReadMemU32(0xE000EDF0, 0x1 Items)
T5F78 000:371.315   CPU_ReadMem(4 bytes @ 0xE000EDF0)
T5F78 000:372.198   Data:  03 00 03 00
T5F78 000:372.234   Debug reg: DHCSR
T5F78 000:372.250 - 0.966ms returns 1 (0x1)
T5F78 000:372.292 JLINK_WriteU32_64(0xE000EDF0, 0xA05F0003)
T5F78 000:372.313   Debug reg: DHCSR
T5F78 000:372.777   CPU_WriteMem(4 bytes @ 0xE000EDF0)
T5F78 000:373.690 - 1.423ms returns 0 (0x00000000)
T5F78 000:373.745 JLINK_WriteU32_64(0xE000EDFC, 0x01000000)
T5F78 000:373.761   Debug reg: DEMCR
T5F78 000:373.791   CPU_WriteMem(4 bytes @ 0xE000EDFC)
T5F78 000:374.666 - 0.946ms returns 0 (0x00000000)
T5F78 000:409.342 JLINK_GetHWStatus(...)
T5F78 000:409.993 - 0.674ms returns 0
T5F78 000:427.654 JLINK_GetNumBPUnits(Type = 0xFFFFFF00)
T5F78 000:427.676 - 0.024ms returns 0x06
T5F78 000:427.682 JLINK_GetNumBPUnits(Type = 0xF0)
T5F78 000:427.687 - 0.006ms returns 0x2000
T5F78 000:427.692 JLINK_GetNumWPUnits()
T5F78 000:427.696 - 0.006ms returns 4
T5F78 000:442.756 JLINK_GetSpeed()
T5F78 000:442.779 - 0.025ms returns 3000
T5F78 000:452.723 JLINK_ReadMemU32(0xE000E004, 0x1 Items)
T5F78 000:452.753   CPU_ReadMem(4 bytes @ 0xE000E004)
T5F78 000:453.841   Data:  03 00 00 00
T5F78 000:453.869 - 1.148ms returns 1 (0x1)
T5F78 000:453.879 JLINK_ReadMemU32(0xE000E004, 0x1 Items)
T5F78 000:453.892   CPU_ReadMem(4 bytes @ 0xE000E004)
T5F78 000:455.025   Data:  03 00 00 00
T5F78 000:455.055 - 1.178ms returns 1 (0x1)
T5F78 000:455.066 JLINK_WriteMemEx(0xE0001000, 0x0000001C Bytes, Flags = 0x02000004)
T5F78 000:455.072   Data:  01 00 00 00 00 00 00 00 00 00 00 00 00 00 00 00 ...
T5F78 000:455.092   CPU_WriteMem(28 bytes @ 0xE0001000)
T5F78 000:455.963 - 0.916ms returns 0x1C
T5F78 000:455.993 JLINK_Halt()
T5F78 000:455.998 - 0.007ms returns 0x00
T5F78 000:456.003 JLINK_IsHalted()
T5F78 000:456.008 - 0.007ms returns TRUE
T5F78 000:458.992 JLINK_WriteMem(0x20000000, 0x188 Bytes, ...)
T5F78 000:459.001   Data:  00 BE 0A E0 0D 78 2D 06 68 40 08 24 40 00 00 D3 ...
T5F78 000:459.213   CPU_WriteMem(392 bytes @ 0x20000000)
T5F78 000:463.151 - 4.183ms returns 0x188
T5F78 000:463.224 JLINK_HasError()
T5F78 000:463.233 JLINK_WriteReg(R0, 0x08000000)
T5F78 000:463.251 - 0.021ms returns 0
T5F78 000:463.257 JLINK_WriteReg(R1, 0x007A1200)
T5F78 000:463.262 - 0.007ms returns 0
T5F78 000:463.267 JLINK_WriteReg(R2, 0x00000001)
T5F78 000:463.272 - 0.006ms returns 0
T5F78 000:463.277 JLINK_WriteReg(R3, 0x00000000)
T5F78 000:463.282 - 0.007ms returns 0
T5F78 000:463.287 JLINK_WriteReg(R4, 0x00000000)
T5F78 000:463.292 - 0.006ms returns 0
T5F78 000:463.297 JLINK_WriteReg(R5, 0x00000000)
T5F78 000:463.301 - 0.006ms returns 0
T5F78 000:463.306 JLINK_WriteReg(R6, 0x00000000)
T5F78 000:463.311 - 0.006ms returns 0
T5F78 000:463.316 JLINK_WriteReg(R7, 0x00000000)
T5F78 000:463.320 - 0.006ms returns 0
T5F78 000:463.325 JLINK_WriteReg(R8, 0x00000000)
T5F78 000:463.334 - 0.011ms returns 0
T5F78 000:463.339 JLINK_WriteReg(R9, 0x20000184)
T5F78 000:463.344 - 0.006ms returns 0
T5F78 000:463.349 JLINK_WriteReg(R10, 0x00000000)
T5F78 000:463.353 - 0.006ms returns 0
T5F78 000:463.358 JLINK_WriteReg(R11, 0x00000000)
T5F78 000:463.363 - 0.007ms returns 0
T5F78 000:463.368 JLINK_WriteReg(R12, 0x00000000)
T5F78 000:463.373 - 0.006ms returns 0
T5F78 000:463.378 JLINK_WriteReg(R13 (SP), 0x20001000)
T5F78 000:463.383 - 0.007ms returns 0
T5F78 000:463.388 JLINK_WriteReg(R14, 0x20000001)
T5F78 000:463.392 - 0.006ms returns 0
T5F78 000:463.401 JLINK_WriteReg(R15 (PC), 0x2000005E)
T5F78 000:463.410 - 0.010ms returns 0
T5F78 000:463.415 JLINK_WriteReg(XPSR, 0x01000000)
T5F78 000:463.420 - 0.007ms returns 0
T5F78 000:463.425 JLINK_WriteReg(MSP, 0x20001000)
T5F78 000:463.429 - 0.006ms returns 0
T5F78 000:463.434 JLINK_WriteReg(PSP, 0x20001000)
T5F78 000:463.439 - 0.006ms returns 0
T5F78 000:463.444 JLINK_WriteReg(CFBP, 0x00000000)
T5F78 000:463.449 - 0.006ms returns 0
T5F78 000:463.454 JLINK_SetBPEx(Addr = 0x20000000, Type = 0xFFFFFFF2)
T5F78 000:463.465   CPU_ReadMem(2 bytes @ 0x20000000)
T5F78 000:464.491 - 1.060ms returns 0x00000001
T5F78 000:464.522 JLINK_Go()
T5F78 000:464.533   CPU_WriteMem(2 bytes @ 0x20000000)
T5F78 000:465.635   CPU_ReadMem(4 bytes @ 0xE0001000)
T5F78 000:466.456   CPU_WriteMem(4 bytes @ 0xE0002008)
T5F78 000:466.474   CPU_WriteMem(4 bytes @ 0xE000200C)
T5F78 000:466.480   CPU_WriteMem(4 bytes @ 0xE0002010)
T5F78 000:466.486   CPU_WriteMem(4 bytes @ 0xE0002014)
T5F78 000:466.493   CPU_WriteMem(4 bytes @ 0xE0002018)
T5F78 000:466.499   CPU_WriteMem(4 bytes @ 0xE000201C)
T5F78 000:468.615   CPU_WriteMem(4 bytes @ 0xE0001004)
T5F78 000:473.452 - 8.944ms
T5F78 000:473.473 JLINK_IsHalted()
T5F78 000:477.580   CPU_ReadMem(2 bytes @ 0x20000000)
T5F78 000:478.303 - 4.837ms returns TRUE
T5F78 000:478.326 JLINK_ReadReg(R15 (PC))
T5F78 000:478.334 - 0.010ms returns 0x20000000
T5F78 000:478.340 JLINK_ClrBPEx(BPHandle = 0x00000001)
T5F78 000:478.345 - 0.007ms returns 0x00
T5F78 000:478.350 JLINK_ReadReg(R0)
T5F78 000:478.354 - 0.006ms returns 0x00000000
T5F78 000:478.641 JLINK_HasError()
T5F78 000:478.651 JLINK_WriteReg(R0, 0x08000000)
T5F78 000:478.657 - 0.008ms returns 0
T5F78 000:478.663 JLINK_WriteReg(R1, 0x00004000)
T5F78 000:478.667 - 0.007ms returns 0
T5F78 000:478.673 JLINK_WriteReg(R2, 0x000000FF)
T5F78 000:478.678 - 0.006ms returns 0
T5F78 000:478.682 JLINK_WriteReg(R3, 0x00000000)
T5F78 000:478.687 - 0.006ms returns 0
T5F78 000:478.692 JLINK_WriteReg(R4, 0x00000000)
T5F78 000:478.697 - 0.006ms returns 0
T5F78 000:478.702 JLINK_WriteReg(R5, 0x00000000)
T5F78 000:478.706 - 0.006ms returns 0
T5F78 000:478.711 JLINK_WriteReg(R6, 0x00000000)
T5F78 000:478.716 - 0.007ms returns 0
T5F78 000:478.721 JLINK_WriteReg(R7, 0x00000000)
T5F78 000:478.725 - 0.006ms returns 0
T5F78 000:478.730 JLINK_WriteReg(R8, 0x00000000)
T5F78 000:478.735 - 0.006ms returns 0
T5F78 000:478.740 JLINK_WriteReg(R9, 0x20000184)
T5F78 000:478.744 - 0.006ms returns 0
T5F78 000:478.749 JLINK_WriteReg(R10, 0x00000000)
T5F78 000:478.754 - 0.006ms returns 0
T5F78 000:478.759 JLINK_WriteReg(R11, 0x00000000)
T5F78 000:478.763 - 0.006ms returns 0
T5F78 000:478.768 JLINK_WriteReg(R12, 0x00000000)
T5F78 000:478.773 - 0.006ms returns 0
T5F78 000:478.778 JLINK_WriteReg(R13 (SP), 0x20001000)
T5F78 000:478.783 - 0.007ms returns 0
T5F78 000:478.788 JLINK_WriteReg(R14, 0x20000001)
T5F78 000:478.792 - 0.006ms returns 0
T5F78 000:478.797 JLINK_WriteReg(R15 (PC), 0x20000020)
T5F78 000:478.802 - 0.006ms returns 0
T5F78 000:478.807 JLINK_WriteReg(XPSR, 0x01000000)
T5F78 000:478.812 - 0.006ms returns 0
T5F78 000:478.817 JLINK_WriteReg(MSP, 0x20001000)
T5F78 000:478.821 - 0.006ms returns 0
T5F78 000:478.826 JLINK_WriteReg(PSP, 0x20001000)
T5F78 000:478.831 - 0.006ms returns 0
T5F78 000:478.836 JLINK_WriteReg(CFBP, 0x00000000)
T5F78 000:478.840 - 0.006ms returns 0
T5F78 000:478.845 JLINK_SetBPEx(Addr = 0x20000000, Type = 0xFFFFFFF2)
T5F78 000:478.851 - 0.007ms returns 0x00000002
T5F78 000:478.856 JLINK_Go()
T5F78 000:478.866   CPU_ReadMem(4 bytes @ 0xE0001000)
T5F78 000:483.903 - 5.056ms
T5F78 000:483.917 JLINK_IsHalted()
T5F78 000:484.693 - 0.784ms returns FALSE
T5F78 000:484.707 JLINK_HasError()
T5F78 000:497.049 JLINK_IsHalted()
T5F78 000:498.155 - 1.130ms returns FALSE
T5F78 000:498.187 JLINK_HasError()
T5F78 000:499.692 JLINK_IsHalted()
T5F78 000:504.584   CPU_ReadMem(2 bytes @ 0x20000000)
T5F78 000:505.376 - 5.706ms returns TRUE
T5F78 000:505.423 JLINK_ReadReg(R15 (PC))
T5F78 000:505.435 - 0.021ms returns 0x20000000
T5F78 000:505.451 JLINK_ClrBPEx(BPHandle = 0x00000002)
T5F78 000:505.458 - 0.008ms returns 0x00
T5F78 000:505.468 JLINK_ReadReg(R0)
T5F78 000:505.474 - 0.008ms returns 0x00000000
T5F78 000:507.264 JLINK_HasError()
T5F78 000:507.286 JLINK_WriteReg(R0, 0x00000001)
T5F78 000:507.294 - 0.011ms returns 0
T5F78 000:507.301 JLINK_WriteReg(R1, 0x00004000)
T5F78 000:507.306 - 0.007ms returns 0
T5F78 000:507.311 JLINK_WriteReg(R2, 0x000000FF)
T5F78 000:507.316 - 0.007ms returns 0
T5F78 000:507.322 JLINK_WriteReg(R3, 0x00000000)
T5F78 000:507.327 - 0.007ms returns 0
T5F78 000:507.332 JLINK_WriteReg(R4, 0x00000000)
T5F78 000:507.337 - 0.007ms returns 0
T5F78 000:507.342 JLINK_WriteReg(R5, 0x00000000)
T5F78 000:507.347 - 0.007ms returns 0
T5F78 000:507.352 JLINK_WriteReg(R6, 0x00000000)
T5F78 000:507.357 - 0.007ms returns 0
T5F78 000:507.362 JLINK_WriteReg(R7, 0x00000000)
T5F78 000:507.367 - 0.007ms returns 0
T5F78 000:507.373 JLINK_WriteReg(R8, 0x00000000)
T5F78 000:507.378 - 0.007ms returns 0
T5F78 000:507.383 JLINK_WriteReg(R9, 0x20000184)
T5F78 000:507.388 - 0.007ms returns 0
T5F78 000:507.393 JLINK_WriteReg(R10, 0x00000000)
T5F78 000:507.398 - 0.007ms returns 0
T5F78 000:507.404 JLINK_WriteReg(R11, 0x00000000)
T5F78 000:507.409 - 0.007ms returns 0
T5F78 000:507.414 JLINK_WriteReg(R12, 0x00000000)
T5F78 000:507.419 - 0.007ms returns 0
T5F78 000:507.424 JLINK_WriteReg(R13 (SP), 0x20001000)
T5F78 000:507.430 - 0.008ms returns 0
T5F78 000:507.435 JLINK_WriteReg(R14, 0x20000001)
T5F78 000:507.440 - 0.007ms returns 0
T5F78 000:507.445 JLINK_WriteReg(R15 (PC), 0x2000008C)
T5F78 000:507.450 - 0.007ms returns 0
T5F78 000:507.456 JLINK_WriteReg(XPSR, 0x01000000)
T5F78 000:507.461 - 0.007ms returns 0
T5F78 000:507.466 JLINK_WriteReg(MSP, 0x20001000)
T5F78 000:507.471 - 0.007ms returns 0
T5F78 000:507.476 JLINK_WriteReg(PSP, 0x20001000)
T5F78 000:507.481 - 0.007ms returns 0
T5F78 000:507.486 JLINK_WriteReg(CFBP, 0x00000000)
T5F78 000:507.491 - 0.007ms returns 0
T5F78 000:507.496 JLINK_SetBPEx(Addr = 0x20000000, Type = 0xFFFFFFF2)
T5F78 000:507.502 - 0.008ms returns 0x00000003
T5F78 000:507.508 JLINK_Go()
T5F78 000:507.522   CPU_ReadMem(4 bytes @ 0xE0001000)
T5F78 000:512.399 - 4.903ms
T5F78 000:512.417 JLINK_IsHalted()
T5F78 000:516.772   CPU_ReadMem(2 bytes @ 0x20000000)
T5F78 000:517.567 - 5.157ms returns TRUE
T5F78 000:517.580 JLINK_ReadReg(R15 (PC))
T5F78 000:517.587 - 0.009ms returns 0x20000000
T5F78 000:517.593 JLINK_ClrBPEx(BPHandle = 0x00000003)
T5F78 000:517.598 - 0.007ms returns 0x00
T5F78 000:517.604 JLINK_ReadReg(R0)
T5F78 000:517.609 - 0.007ms returns 0x00000000
T5F78 000:597.449 JLINK_WriteMem(0x20000000, 0x188 Bytes, ...)
T5F78 000:597.481   Data:  00 BE 0A E0 0D 78 2D 06 68 40 08 24 40 00 00 D3 ...
T5F78 000:597.524   CPU_WriteMem(392 bytes @ 0x20000000)
T5F78 000:601.316 - 3.910ms returns 0x188
T5F78 000:601.460 JLINK_HasError()
T5F78 000:601.485 JLINK_WriteReg(R0, 0x08000000)
T5F78 000:601.506 - 0.028ms returns 0
T5F78 000:601.522 JLINK_WriteReg(R1, 0x007A1200)
T5F78 000:601.537 - 0.021ms returns 0
T5F78 000:601.553 JLINK_WriteReg(R2, 0x00000002)
T5F78 000:601.567 - 0.021ms returns 0
T5F78 000:601.582 JLINK_WriteReg(R3, 0x00000000)
T5F78 000:601.596 - 0.020ms returns 0
T5F78 000:601.612 JLINK_WriteReg(R4, 0x00000000)
T5F78 000:601.626 - 0.020ms returns 0
T5F78 000:601.641 JLINK_WriteReg(R5, 0x00000000)
T5F78 000:601.655 - 0.021ms returns 0
T5F78 000:601.670 JLINK_WriteReg(R6, 0x00000000)
T5F78 000:601.686 - 0.022ms returns 0
T5F78 000:601.701 JLINK_WriteReg(R7, 0x00000000)
T5F78 000:601.715 - 0.020ms returns 0
T5F78 000:601.730 JLINK_WriteReg(R8, 0x00000000)
T5F78 000:601.744 - 0.020ms returns 0
T5F78 000:601.759 JLINK_WriteReg(R9, 0x20000184)
T5F78 000:601.773 - 0.020ms returns 0
T5F78 000:601.788 JLINK_WriteReg(R10, 0x00000000)
T5F78 000:601.802 - 0.020ms returns 0
T5F78 000:601.817 JLINK_WriteReg(R11, 0x00000000)
T5F78 000:601.830 - 0.020ms returns 0
T5F78 000:601.846 JLINK_WriteReg(R12, 0x00000000)
T5F78 000:601.870 - 0.036ms returns 0
T5F78 000:601.891 JLINK_WriteReg(R13 (SP), 0x20001000)
T5F78 000:601.907 - 0.022ms returns 0
T5F78 000:601.922 JLINK_WriteReg(R14, 0x20000001)
T5F78 000:601.936 - 0.021ms returns 0
T5F78 000:601.951 JLINK_WriteReg(R15 (PC), 0x2000005E)
T5F78 000:601.965 - 0.020ms returns 0
T5F78 000:601.981 JLINK_WriteReg(XPSR, 0x01000000)
T5F78 000:601.995 - 0.020ms returns 0
T5F78 000:602.010 JLINK_WriteReg(MSP, 0x20001000)
T5F78 000:602.024 - 0.020ms returns 0
T5F78 000:602.039 JLINK_WriteReg(PSP, 0x20001000)
T5F78 000:602.053 - 0.020ms returns 0
T5F78 000:602.068 JLINK_WriteReg(CFBP, 0x00000000)
T5F78 000:602.082 - 0.020ms returns 0
T5F78 000:602.098 JLINK_SetBPEx(Addr = 0x20000000, Type = 0xFFFFFFF2)
T5F78 000:602.123   CPU_ReadMem(2 bytes @ 0x20000000)
T5F78 000:603.203 - 1.151ms returns 0x00000004
T5F78 000:603.269 JLINK_Go()
T5F78 000:603.297   CPU_WriteMem(2 bytes @ 0x20000000)
T5F78 000:604.291   CPU_ReadMem(4 bytes @ 0xE0001000)
T5F78 000:609.821 - 6.591ms
T5F78 000:609.907 JLINK_IsHalted()
T5F78 000:614.975   CPU_ReadMem(2 bytes @ 0x20000000)
T5F78 000:615.856 - 5.978ms returns TRUE
T5F78 000:615.917 JLINK_ReadReg(R15 (PC))
T5F78 000:615.938 - 0.026ms returns 0x20000000
T5F78 000:615.952 JLINK_ClrBPEx(BPHandle = 0x00000004)
T5F78 000:615.963 - 0.016ms returns 0x00
T5F78 000:615.982 JLINK_ReadReg(R0)
T5F78 000:615.994 - 0.017ms returns 0x00000000
T5F78 000:616.871 JLINK_WriteMem(0x20000188, 0x278 Bytes, ...)
T5F78 000:616.902   Data:  A0 1F 00 20 DD 01 00 08 F1 20 00 08 C5 1F 00 08 ...
T5F78 000:616.937   CPU_WriteMem(632 bytes @ 0x20000188)
T5F78 000:622.262 - 5.427ms returns 0x278
T5F78 000:622.315 JLINK_WriteMem(0x20000400, 0x188 Bytes, ...)
T5F78 000:622.329   Data:  0A 46 04 46 19 46 FF F7 F0 FF 20 46 10 BD 20 2A ...
T5F78 000:622.366   CPU_WriteMem(392 bytes @ 0x20000400)
T5F78 000:626.285 - 4.008ms returns 0x188
T5F78 000:626.340 JLINK_HasError()
T5F78 000:626.356 JLINK_WriteReg(R0, 0x08000000)
T5F78 000:626.374 - 0.024ms returns 0
T5F78 000:626.388 JLINK_WriteReg(R1, 0x00000400)
T5F78 000:626.400 - 0.017ms returns 0
T5F78 000:626.412 JLINK_WriteReg(R2, 0x20000188)
T5F78 000:626.423 - 0.016ms returns 0
T5F78 000:626.436 JLINK_WriteReg(R3, 0x00000000)
T5F78 000:626.447 - 0.016ms returns 0
T5F78 000:626.459 JLINK_WriteReg(R4, 0x00000000)
T5F78 000:626.470 - 0.016ms returns 0
T5F78 000:626.482 JLINK_WriteReg(R5, 0x00000000)
T5F78 000:626.493 - 0.016ms returns 0
T5F78 000:626.505 JLINK_WriteReg(R6, 0x00000000)
T5F78 000:626.516 - 0.016ms returns 0
T5F78 000:626.528 JLINK_WriteReg(R7, 0x00000000)
T5F78 000:626.538 - 0.016ms returns 0
T5F78 000:626.550 JLINK_WriteReg(R8, 0x00000000)
T5F78 000:626.561 - 0.016ms returns 0
T5F78 000:626.573 JLINK_WriteReg(R9, 0x20000184)
T5F78 000:626.584 - 0.016ms returns 0
T5F78 000:626.596 JLINK_WriteReg(R10, 0x00000000)
T5F78 000:626.608 - 0.016ms returns 0
T5F78 000:626.619 JLINK_WriteReg(R11, 0x00000000)
T5F78 000:626.630 - 0.016ms returns 0
T5F78 000:626.642 JLINK_WriteReg(R12, 0x00000000)
T5F78 000:626.653 - 0.015ms returns 0
T5F78 000:626.664 JLINK_WriteReg(R13 (SP), 0x20001000)
T5F78 000:626.676 - 0.017ms returns 0
T5F78 000:626.688 JLINK_WriteReg(R14, 0x20000001)
T5F78 000:626.699 - 0.016ms returns 0
T5F78 000:626.711 JLINK_WriteReg(R15 (PC), 0x20000112)
T5F78 000:626.722 - 0.016ms returns 0
T5F78 000:626.734 JLINK_WriteReg(XPSR, 0x01000000)
T5F78 000:626.745 - 0.015ms returns 0
T5F78 000:626.757 JLINK_WriteReg(MSP, 0x20001000)
T5F78 000:626.768 - 0.016ms returns 0
T5F78 000:626.779 JLINK_WriteReg(PSP, 0x20001000)
T5F78 000:626.790 - 0.016ms returns 0
T5F78 000:626.802 JLINK_WriteReg(CFBP, 0x00000000)
T5F78 000:626.813 - 0.015ms returns 0
T5F78 000:626.825 JLINK_SetBPEx(Addr = 0x20000000, Type = 0xFFFFFFF2)
T5F78 000:626.837 - 0.017ms returns 0x00000005
T5F78 000:626.849 JLINK_Go()
T5F78 000:626.874   CPU_ReadMem(4 bytes @ 0xE0001000)
T5F78 000:632.356 - 5.544ms
T5F78 000:632.408 JLINK_IsHalted()
T5F78 000:633.155 - 0.770ms returns FALSE
T5F78 000:633.191 JLINK_HasError()
T5F78 000:641.463 JLINK_IsHalted()
T5F78 000:646.295   CPU_ReadMem(2 bytes @ 0x20000000)
T5F78 000:647.360 - 5.920ms returns TRUE
T5F78 000:647.402 JLINK_ReadReg(R15 (PC))
T5F78 000:647.412 - 0.012ms returns 0x20000000
T5F78 000:647.418 JLINK_ClrBPEx(BPHandle = 0x00000005)
T5F78 000:647.424 - 0.008ms returns 0x00
T5F78 000:647.429 JLINK_ReadReg(R0)
T5F78 000:647.434 - 0.007ms returns 0x00000000
T5F78 000:647.951 JLINK_WriteMem(0x20000188, 0x278 Bytes, ...)
T5F78 000:647.965   Data:  1C 48 00 68 00 F4 00 70 B0 B1 1A 48 00 68 20 F4 ...
T5F78 000:647.981   CPU_WriteMem(632 bytes @ 0x20000188)
T5F78 000:653.405 - 5.476ms returns 0x278
T5F78 000:653.435 JLINK_WriteMem(0x20000400, 0x188 Bytes, ...)
T5F78 000:653.441   Data:  BD E8 F0 81 01 20 01 F0 E6 FF 00 20 4F F0 E0 21 ...
T5F78 000:653.457   CPU_WriteMem(392 bytes @ 0x20000400)
T5F78 000:657.444 - 4.032ms returns 0x188
T5F78 000:657.477 JLINK_HasError()
T5F78 000:657.485 JLINK_WriteReg(R0, 0x08000400)
T5F78 000:657.494 - 0.011ms returns 0
T5F78 000:657.500 JLINK_WriteReg(R1, 0x00000400)
T5F78 000:657.505 - 0.007ms returns 0
T5F78 000:657.510 JLINK_WriteReg(R2, 0x20000188)
T5F78 000:657.515 - 0.007ms returns 0
T5F78 000:657.520 JLINK_WriteReg(R3, 0x00000000)
T5F78 000:657.525 - 0.007ms returns 0
T5F78 000:657.530 JLINK_WriteReg(R4, 0x00000000)
T5F78 000:657.535 - 0.007ms returns 0
T5F78 000:657.540 JLINK_WriteReg(R5, 0x00000000)
T5F78 000:657.545 - 0.007ms returns 0
T5F78 000:657.550 JLINK_WriteReg(R6, 0x00000000)
T5F78 000:657.555 - 0.006ms returns 0
T5F78 000:657.560 JLINK_WriteReg(R7, 0x00000000)
T5F78 000:657.565 - 0.006ms returns 0
T5F78 000:657.570 JLINK_WriteReg(R8, 0x00000000)
T5F78 000:657.575 - 0.006ms returns 0
T5F78 000:657.580 JLINK_WriteReg(R9, 0x20000184)
T5F78 000:657.584 - 0.006ms returns 0
T5F78 000:657.590 JLINK_WriteReg(R10, 0x00000000)
T5F78 000:657.594 - 0.007ms returns 0
T5F78 000:657.599 JLINK_WriteReg(R11, 0x00000000)
T5F78 000:657.604 - 0.006ms returns 0
T5F78 000:657.609 JLINK_WriteReg(R12, 0x00000000)
T5F78 000:657.614 - 0.007ms returns 0
T5F78 000:657.619 JLINK_WriteReg(R13 (SP), 0x20001000)
T5F78 000:657.625 - 0.007ms returns 0
T5F78 000:657.630 JLINK_WriteReg(R14, 0x20000001)
T5F78 000:657.634 - 0.006ms returns 0
T5F78 000:657.640 JLINK_WriteReg(R15 (PC), 0x20000112)
T5F78 000:657.644 - 0.007ms returns 0
T5F78 000:657.650 JLINK_WriteReg(XPSR, 0x01000000)
T5F78 000:657.654 - 0.006ms returns 0
T5F78 000:657.659 JLINK_WriteReg(MSP, 0x20001000)
T5F78 000:657.664 - 0.006ms returns 0
T5F78 000:657.669 JLINK_WriteReg(PSP, 0x20001000)
T5F78 000:657.674 - 0.007ms returns 0
T5F78 000:657.679 JLINK_WriteReg(CFBP, 0x00000000)
T5F78 000:657.684 - 0.006ms returns 0
T5F78 000:657.689 JLINK_SetBPEx(Addr = 0x20000000, Type = 0xFFFFFFF2)
T5F78 000:657.695 - 0.008ms returns 0x00000006
T5F78 000:657.700 JLINK_Go()
T5F78 000:657.712   CPU_ReadMem(4 bytes @ 0xE0001000)
T5F78 000:662.787 - 5.108ms
T5F78 000:662.815 JLINK_IsHalted()
T5F78 000:663.416 - 0.611ms returns FALSE
T5F78 000:663.432 JLINK_HasError()
T5F78 000:665.334 JLINK_IsHalted()
T5F78 000:665.914 - 0.590ms returns FALSE
T5F78 000:665.930 JLINK_HasError()
T5F78 000:667.392 JLINK_IsHalted()
T5F78 000:671.340   CPU_ReadMem(2 bytes @ 0x20000000)
T5F78 000:672.444 - 5.078ms returns TRUE
T5F78 000:672.484 JLINK_ReadReg(R15 (PC))
T5F78 000:672.494 - 0.012ms returns 0x20000000
T5F78 000:672.499 JLINK_ClrBPEx(BPHandle = 0x00000006)
T5F78 000:672.505 - 0.007ms returns 0x00
T5F78 000:672.510 JLINK_ReadReg(R0)
T5F78 000:672.515 - 0.007ms returns 0x00000000
T5F78 000:673.012 JLINK_WriteMem(0x20000188, 0x278 Bytes, ...)
T5F78 000:673.024   Data:  7F 00 00 E0 3C E0 00 0C 98 70 20 68 00 F5 D8 70 ...
T5F78 000:673.039   CPU_WriteMem(632 bytes @ 0x20000188)
T5F78 000:678.605 - 5.617ms returns 0x278
T5F78 000:678.638 JLINK_WriteMem(0x20000400, 0x188 Bytes, ...)
T5F78 000:678.644   Data:  0C D0 30 28 19 D1 0C E0 50 28 10 D0 60 28 14 D1 ...
T5F78 000:678.661   CPU_WriteMem(392 bytes @ 0x20000400)
T5F78 000:682.627 - 4.016ms returns 0x188
T5F78 000:682.669 JLINK_HasError()
T5F78 000:682.680 JLINK_WriteReg(R0, 0x08000800)
T5F78 000:682.691 - 0.013ms returns 0
T5F78 000:682.698 JLINK_WriteReg(R1, 0x00000400)
T5F78 000:682.703 - 0.008ms returns 0
T5F78 000:682.709 JLINK_WriteReg(R2, 0x20000188)
T5F78 000:682.714 - 0.007ms returns 0
T5F78 000:682.720 JLINK_WriteReg(R3, 0x00000000)
T5F78 000:682.725 - 0.007ms returns 0
T5F78 000:682.731 JLINK_WriteReg(R4, 0x00000000)
T5F78 000:682.736 - 0.007ms returns 0
T5F78 000:682.741 JLINK_WriteReg(R5, 0x00000000)
T5F78 000:682.746 - 0.007ms returns 0
T5F78 000:682.752 JLINK_WriteReg(R6, 0x00000000)
T5F78 000:682.757 - 0.007ms returns 0
T5F78 000:682.763 JLINK_WriteReg(R7, 0x00000000)
T5F78 000:682.768 - 0.008ms returns 0
T5F78 000:682.774 JLINK_WriteReg(R8, 0x00000000)
T5F78 000:682.779 - 0.007ms returns 0
T5F78 000:682.784 JLINK_WriteReg(R9, 0x20000184)
T5F78 000:682.789 - 0.007ms returns 0
T5F78 000:682.795 JLINK_WriteReg(R10, 0x00000000)
T5F78 000:682.800 - 0.007ms returns 0
T5F78 000:682.805 JLINK_WriteReg(R11, 0x00000000)
T5F78 000:682.810 - 0.007ms returns 0
T5F78 000:682.816 JLINK_WriteReg(R12, 0x00000000)
T5F78 000:682.821 - 0.007ms returns 0
T5F78 000:682.826 JLINK_WriteReg(R13 (SP), 0x20001000)
T5F78 000:682.832 - 0.008ms returns 0
T5F78 000:682.838 JLINK_WriteReg(R14, 0x20000001)
T5F78 000:682.843 - 0.007ms returns 0
T5F78 000:682.849 JLINK_WriteReg(R15 (PC), 0x20000112)
T5F78 000:682.854 - 0.007ms returns 0
T5F78 000:682.859 JLINK_WriteReg(XPSR, 0x01000000)
T5F78 000:682.864 - 0.007ms returns 0
T5F78 000:682.869 JLINK_WriteReg(MSP, 0x20001000)
T5F78 000:682.875 - 0.007ms returns 0
T5F78 000:682.880 JLINK_WriteReg(PSP, 0x20001000)
T5F78 000:682.885 - 0.007ms returns 0
T5F78 000:682.890 JLINK_WriteReg(CFBP, 0x00000000)
T5F78 000:682.895 - 0.007ms returns 0
T5F78 000:682.901 JLINK_SetBPEx(Addr = 0x20000000, Type = 0xFFFFFFF2)
T5F78 000:682.907 - 0.008ms returns 0x00000007
T5F78 000:682.913 JLINK_Go()
T5F78 000:682.926   CPU_ReadMem(4 bytes @ 0xE0001000)
T5F78 000:688.646 - 5.759ms
T5F78 000:688.682 JLINK_IsHalted()
T5F78 000:689.370 - 0.710ms returns FALSE
T5F78 000:689.401 JLINK_HasError()
T5F78 000:691.858 JLINK_IsHalted()
T5F78 000:692.659 - 0.824ms returns FALSE
T5F78 000:692.692 JLINK_HasError()
T5F78 000:694.798 JLINK_IsHalted()
T5F78 000:699.529   CPU_ReadMem(2 bytes @ 0x20000000)
T5F78 000:700.611 - 5.839ms returns TRUE
T5F78 000:700.666 JLINK_ReadReg(R15 (PC))
T5F78 000:700.682 - 0.019ms returns 0x20000000
T5F78 000:700.690 JLINK_ClrBPEx(BPHandle = 0x00000007)
T5F78 000:700.696 - 0.009ms returns 0x00
T5F78 000:700.707 JLINK_ReadReg(R0)
T5F78 000:700.714 - 0.009ms returns 0x00000000
T5F78 000:701.322 JLINK_WriteMem(0x20000188, 0x278 Bytes, ...)
T5F78 000:701.337   Data:  80 B1 20 68 00 68 00 F4 00 20 28 B9 20 6C C8 B1 ...
T5F78 000:701.355   CPU_WriteMem(632 bytes @ 0x20000188)
T5F78 000:706.746 - 5.448ms returns 0x278
T5F78 000:706.780 JLINK_WriteMem(0x20000400, 0x188 Bytes, ...)
T5F78 000:706.787   Data:  01 2E 04 D1 A1 B2 40 46 FF F7 3C FB 0B E0 02 2E ...
T5F78 000:706.807   CPU_WriteMem(392 bytes @ 0x20000400)
T5F78 000:710.730 - 3.975ms returns 0x188
T5F78 000:710.766 JLINK_HasError()
T5F78 000:710.775 JLINK_WriteReg(R0, 0x08000C00)
T5F78 000:710.786 - 0.014ms returns 0
T5F78 000:710.793 JLINK_WriteReg(R1, 0x00000400)
T5F78 000:710.799 - 0.009ms returns 0
T5F78 000:710.806 JLINK_WriteReg(R2, 0x20000188)
T5F78 000:710.812 - 0.008ms returns 0
T5F78 000:710.818 JLINK_WriteReg(R3, 0x00000000)
T5F78 000:710.824 - 0.009ms returns 0
T5F78 000:710.831 JLINK_WriteReg(R4, 0x00000000)
T5F78 000:710.837 - 0.008ms returns 0
T5F78 000:710.843 JLINK_WriteReg(R5, 0x00000000)
T5F78 000:710.849 - 0.008ms returns 0
T5F78 000:710.856 JLINK_WriteReg(R6, 0x00000000)
T5F78 000:710.862 - 0.008ms returns 0
T5F78 000:710.868 JLINK_WriteReg(R7, 0x00000000)
T5F78 000:710.874 - 0.008ms returns 0
T5F78 000:710.880 JLINK_WriteReg(R8, 0x00000000)
T5F78 000:710.886 - 0.008ms returns 0
T5F78 000:710.892 JLINK_WriteReg(R9, 0x20000184)
T5F78 000:710.944 - 0.059ms returns 0
T5F78 000:710.956 JLINK_WriteReg(R10, 0x00000000)
T5F78 000:710.963 - 0.009ms returns 0
T5F78 000:710.969 JLINK_WriteReg(R11, 0x00000000)
T5F78 000:710.975 - 0.008ms returns 0
T5F78 000:710.981 JLINK_WriteReg(R12, 0x00000000)
T5F78 000:710.987 - 0.008ms returns 0
T5F78 000:710.994 JLINK_WriteReg(R13 (SP), 0x20001000)
T5F78 000:711.001 - 0.009ms returns 0
T5F78 000:711.007 JLINK_WriteReg(R14, 0x20000001)
T5F78 000:711.013 - 0.008ms returns 0
T5F78 000:711.019 JLINK_WriteReg(R15 (PC), 0x20000112)
T5F78 000:711.025 - 0.008ms returns 0
T5F78 000:711.032 JLINK_WriteReg(XPSR, 0x01000000)
T5F78 000:711.038 - 0.008ms returns 0
T5F78 000:711.044 JLINK_WriteReg(MSP, 0x20001000)
T5F78 000:711.050 - 0.008ms returns 0
T5F78 000:711.056 JLINK_WriteReg(PSP, 0x20001000)
T5F78 000:711.062 - 0.008ms returns 0
T5F78 000:711.069 JLINK_WriteReg(CFBP, 0x00000000)
T5F78 000:711.074 - 0.008ms returns 0
T5F78 000:711.081 JLINK_SetBPEx(Addr = 0x20000000, Type = 0xFFFFFFF2)
T5F78 000:711.089 - 0.010ms returns 0x00000008
T5F78 000:711.095 JLINK_Go()
T5F78 000:711.110   CPU_ReadMem(4 bytes @ 0xE0001000)
T5F78 000:716.994 - 5.925ms
T5F78 000:717.029 JLINK_IsHalted()
T5F78 000:718.152 - 1.148ms returns FALSE
T5F78 000:718.188 JLINK_HasError()
T5F78 000:720.777 JLINK_IsHalted()
T5F78 000:725.461   CPU_ReadMem(2 bytes @ 0x20000000)
T5F78 000:726.354 - 5.593ms returns TRUE
T5F78 000:726.395 JLINK_ReadReg(R15 (PC))
T5F78 000:726.407 - 0.016ms returns 0x20000000
T5F78 000:726.415 JLINK_ClrBPEx(BPHandle = 0x00000008)
T5F78 000:726.423 - 0.010ms returns 0x00
T5F78 000:726.434 JLINK_ReadReg(R0)
T5F78 000:726.441 - 0.011ms returns 0x00000000
T5F78 000:727.091 JLINK_WriteMem(0x20000188, 0x278 Bytes, ...)
T5F78 000:727.108   Data:  30 4E B2 42 02 D1 00 26 1F E0 52 E0 2E 4E B2 42 ...
T5F78 000:727.127   CPU_WriteMem(632 bytes @ 0x20000188)
T5F78 000:732.381 - 5.305ms returns 0x278
T5F78 000:732.404 JLINK_WriteMem(0x20000400, 0x188 Bytes, ...)
T5F78 000:732.411   Data:  07 02 06 4B 19 68 4F F6 FF 03 19 40 04 4B 0B 43 ...
T5F78 000:732.428   CPU_WriteMem(392 bytes @ 0x20000400)
T5F78 000:736.333 - 3.963ms returns 0x188
T5F78 000:736.378 JLINK_HasError()
T5F78 000:736.388 JLINK_WriteReg(R0, 0x08001000)
T5F78 000:736.400 - 0.015ms returns 0
T5F78 000:736.408 JLINK_WriteReg(R1, 0x00000400)
T5F78 000:736.415 - 0.010ms returns 0
T5F78 000:736.422 JLINK_WriteReg(R2, 0x20000188)
T5F78 000:736.428 - 0.009ms returns 0
T5F78 000:736.435 JLINK_WriteReg(R3, 0x00000000)
T5F78 000:736.442 - 0.009ms returns 0
T5F78 000:736.449 JLINK_WriteReg(R4, 0x00000000)
T5F78 000:736.455 - 0.009ms returns 0
T5F78 000:736.462 JLINK_WriteReg(R5, 0x00000000)
T5F78 000:736.469 - 0.009ms returns 0
T5F78 000:736.476 JLINK_WriteReg(R6, 0x00000000)
T5F78 000:736.482 - 0.009ms returns 0
T5F78 000:736.489 JLINK_WriteReg(R7, 0x00000000)
T5F78 000:736.496 - 0.009ms returns 0
T5F78 000:736.503 JLINK_WriteReg(R8, 0x00000000)
T5F78 000:736.509 - 0.009ms returns 0
T5F78 000:736.516 JLINK_WriteReg(R9, 0x20000184)
T5F78 000:736.523 - 0.009ms returns 0
T5F78 000:736.530 JLINK_WriteReg(R10, 0x00000000)
T5F78 000:736.536 - 0.009ms returns 0
T5F78 000:736.543 JLINK_WriteReg(R11, 0x00000000)
T5F78 000:736.549 - 0.009ms returns 0
T5F78 000:736.556 JLINK_WriteReg(R12, 0x00000000)
T5F78 000:736.563 - 0.009ms returns 0
T5F78 000:736.570 JLINK_WriteReg(R13 (SP), 0x20001000)
T5F78 000:736.577 - 0.010ms returns 0
T5F78 000:736.584 JLINK_WriteReg(R14, 0x20000001)
T5F78 000:736.591 - 0.009ms returns 0
T5F78 000:736.598 JLINK_WriteReg(R15 (PC), 0x20000112)
T5F78 000:736.604 - 0.009ms returns 0
T5F78 000:736.611 JLINK_WriteReg(XPSR, 0x01000000)
T5F78 000:736.618 - 0.009ms returns 0
T5F78 000:736.625 JLINK_WriteReg(MSP, 0x20001000)
T5F78 000:736.631 - 0.009ms returns 0
T5F78 000:736.638 JLINK_WriteReg(PSP, 0x20001000)
T5F78 000:736.645 - 0.009ms returns 0
T5F78 000:736.652 JLINK_WriteReg(CFBP, 0x00000000)
T5F78 000:736.658 - 0.009ms returns 0
T5F78 000:736.666 JLINK_SetBPEx(Addr = 0x20000000, Type = 0xFFFFFFF2)
T5F78 000:736.723 - 0.066ms returns 0x00000009
T5F78 000:736.736 JLINK_Go()
T5F78 000:736.753   CPU_ReadMem(4 bytes @ 0xE0001000)
T5F78 000:742.587 - 5.879ms
T5F78 000:742.626 JLINK_IsHalted()
T5F78 000:743.687 - 1.089ms returns FALSE
T5F78 000:743.725 JLINK_HasError()
T5F78 000:744.881 JLINK_IsHalted()
T5F78 000:745.830 - 0.975ms returns FALSE
T5F78 000:745.867 JLINK_HasError()
T5F78 000:747.869 JLINK_IsHalted()
T5F78 000:752.773   CPU_ReadMem(2 bytes @ 0x20000000)
T5F78 000:753.717 - 5.875ms returns TRUE
T5F78 000:753.765 JLINK_ReadReg(R15 (PC))
T5F78 000:753.780 - 0.020ms returns 0x20000000
T5F78 000:753.796 JLINK_ClrBPEx(BPHandle = 0x00000009)
T5F78 000:753.806 - 0.014ms returns 0x00
T5F78 000:753.820 JLINK_ReadReg(R0)
T5F78 000:753.831 - 0.014ms returns 0x00000000
T5F78 000:754.940 JLINK_WriteMem(0x20000188, 0x278 Bytes, ...)
T5F78 000:754.967   Data:  80 1B 41 F2 88 31 88 42 02 D9 03 20 91 E7 07 E0 ...
T5F78 000:754.991   CPU_WriteMem(632 bytes @ 0x20000188)
T5F78 000:760.575 - 5.663ms returns 0x278
T5F78 000:760.614 JLINK_WriteMem(0x20000400, 0x188 Bytes, ...)
T5F78 000:760.622   Data:  00 26 A1 46 A2 46 3F 48 00 68 00 F0 0C 00 30 B1 ...
T5F78 000:760.645   CPU_WriteMem(392 bytes @ 0x20000400)
T5F78 000:764.556 - 3.970ms returns 0x188
T5F78 000:764.596 JLINK_HasError()
T5F78 000:764.607 JLINK_WriteReg(R0, 0x08001400)
T5F78 000:764.620 - 0.017ms returns 0
T5F78 000:764.628 JLINK_WriteReg(R1, 0x00000400)
T5F78 000:764.636 - 0.011ms returns 0
T5F78 000:764.645 JLINK_WriteReg(R2, 0x20000188)
T5F78 000:764.652 - 0.010ms returns 0
T5F78 000:764.660 JLINK_WriteReg(R3, 0x00000000)
T5F78 000:764.667 - 0.010ms returns 0
T5F78 000:764.674 JLINK_WriteReg(R4, 0x00000000)
T5F78 000:764.682 - 0.010ms returns 0
T5F78 000:764.689 JLINK_WriteReg(R5, 0x00000000)
T5F78 000:764.696 - 0.010ms returns 0
T5F78 000:764.704 JLINK_WriteReg(R6, 0x00000000)
T5F78 000:764.711 - 0.010ms returns 0
T5F78 000:764.719 JLINK_WriteReg(R7, 0x00000000)
T5F78 000:764.726 - 0.010ms returns 0
T5F78 000:764.734 JLINK_WriteReg(R8, 0x00000000)
T5F78 000:764.741 - 0.010ms returns 0
T5F78 000:764.749 JLINK_WriteReg(R9, 0x20000184)
T5F78 000:764.756 - 0.010ms returns 0
T5F78 000:764.764 JLINK_WriteReg(R10, 0x00000000)
T5F78 000:764.771 - 0.010ms returns 0
T5F78 000:764.779 JLINK_WriteReg(R11, 0x00000000)
T5F78 000:764.786 - 0.010ms returns 0
T5F78 000:764.793 JLINK_WriteReg(R12, 0x00000000)
T5F78 000:764.801 - 0.010ms returns 0
T5F78 000:764.808 JLINK_WriteReg(R13 (SP), 0x20001000)
T5F78 000:764.816 - 0.011ms returns 0
T5F78 000:764.824 JLINK_WriteReg(R14, 0x20000001)
T5F78 000:764.831 - 0.010ms returns 0
T5F78 000:764.839 JLINK_WriteReg(R15 (PC), 0x20000112)
T5F78 000:764.846 - 0.010ms returns 0
T5F78 000:764.854 JLINK_WriteReg(XPSR, 0x01000000)
T5F78 000:764.861 - 0.010ms returns 0
T5F78 000:764.869 JLINK_WriteReg(MSP, 0x20001000)
T5F78 000:764.876 - 0.010ms returns 0
T5F78 000:764.884 JLINK_WriteReg(PSP, 0x20001000)
T5F78 000:764.891 - 0.010ms returns 0
T5F78 000:764.899 JLINK_WriteReg(CFBP, 0x00000000)
T5F78 000:764.906 - 0.010ms returns 0
T5F78 000:764.914 JLINK_SetBPEx(Addr = 0x20000000, Type = 0xFFFFFFF2)
T5F78 000:764.923 - 0.012ms returns 0x0000000A
T5F78 000:764.931 JLINK_Go()
T5F78 000:764.948   CPU_ReadMem(4 bytes @ 0xE0001000)
T5F78 000:770.882 - 5.982ms
T5F78 000:770.925 JLINK_IsHalted()
T5F78 000:771.911 - 1.015ms returns FALSE
T5F78 000:771.953 JLINK_HasError()
T5F78 000:773.924 JLINK_IsHalted()
T5F78 000:775.057 - 1.167ms returns FALSE
T5F78 000:775.105 JLINK_HasError()
T5F78 000:776.947 JLINK_IsHalted()
T5F78 000:782.076   CPU_ReadMem(2 bytes @ 0x20000000)
T5F78 000:783.069 - 6.157ms returns TRUE
T5F78 000:783.135 JLINK_ReadReg(R15 (PC))
T5F78 000:783.155 - 0.026ms returns 0x20000000
T5F78 000:783.168 JLINK_ClrBPEx(BPHandle = 0x0000000A)
T5F78 000:783.179 - 0.016ms returns 0x00
T5F78 000:783.198 JLINK_ReadReg(R0)
T5F78 000:783.210 - 0.016ms returns 0x00000000
T5F78 000:784.384 JLINK_WriteMem(0x20000188, 0x278 Bytes, ...)
T5F78 000:784.414   Data:  08 D1 E5 48 08 38 00 68 40 F4 80 30 E2 49 08 39 ...
T5F78 000:784.462   CPU_WriteMem(632 bytes @ 0x20000188)
T5F78 000:789.894 - 5.548ms returns 0x278
T5F78 000:789.950 JLINK_WriteMem(0x20000400, 0x188 Bytes, ...)
T5F78 000:789.965   Data:  A0 68 05 28 0D D1 46 48 68 30 00 68 40 F0 04 00 ...
T5F78 000:790.002   CPU_WriteMem(392 bytes @ 0x20000400)
T5F78 000:793.745 - 3.835ms returns 0x188
T5F78 000:793.803 JLINK_HasError()
T5F78 000:793.820 JLINK_WriteReg(R0, 0x08001800)
T5F78 000:793.841 - 0.028ms returns 0
T5F78 000:793.856 JLINK_WriteReg(R1, 0x00000400)
T5F78 000:793.869 - 0.018ms returns 0
T5F78 000:793.882 JLINK_WriteReg(R2, 0x20000188)
T5F78 000:793.895 - 0.018ms returns 0
T5F78 000:793.907 JLINK_WriteReg(R3, 0x00000000)
T5F78 000:793.920 - 0.018ms returns 0
T5F78 000:793.933 JLINK_WriteReg(R4, 0x00000000)
T5F78 000:793.945 - 0.017ms returns 0
T5F78 000:793.958 JLINK_WriteReg(R5, 0x00000000)
T5F78 000:793.970 - 0.017ms returns 0
T5F78 000:793.983 JLINK_WriteReg(R6, 0x00000000)
T5F78 000:793.995 - 0.017ms returns 0
T5F78 000:794.008 JLINK_WriteReg(R7, 0x00000000)
T5F78 000:794.020 - 0.018ms returns 0
T5F78 000:794.033 JLINK_WriteReg(R8, 0x00000000)
T5F78 000:794.045 - 0.017ms returns 0
T5F78 000:794.058 JLINK_WriteReg(R9, 0x20000184)
T5F78 000:794.070 - 0.017ms returns 0
T5F78 000:794.083 JLINK_WriteReg(R10, 0x00000000)
T5F78 000:794.096 - 0.018ms returns 0
T5F78 000:794.108 JLINK_WriteReg(R11, 0x00000000)
T5F78 000:794.121 - 0.018ms returns 0
T5F78 000:794.134 JLINK_WriteReg(R12, 0x00000000)
T5F78 000:794.145 - 0.017ms returns 0
T5F78 000:794.159 JLINK_WriteReg(R13 (SP), 0x20001000)
T5F78 000:794.173 - 0.019ms returns 0
T5F78 000:794.186 JLINK_WriteReg(R14, 0x20000001)
T5F78 000:794.198 - 0.017ms returns 0
T5F78 000:794.211 JLINK_WriteReg(R15 (PC), 0x20000112)
T5F78 000:794.224 - 0.018ms returns 0
T5F78 000:794.237 JLINK_WriteReg(XPSR, 0x01000000)
T5F78 000:794.249 - 0.018ms returns 0
T5F78 000:794.262 JLINK_WriteReg(MSP, 0x20001000)
T5F78 000:794.275 - 0.017ms returns 0
T5F78 000:794.288 JLINK_WriteReg(PSP, 0x20001000)
T5F78 000:794.300 - 0.018ms returns 0
T5F78 000:794.314 JLINK_WriteReg(CFBP, 0x00000000)
T5F78 000:794.326 - 0.018ms returns 0
T5F78 000:794.340 JLINK_SetBPEx(Addr = 0x20000000, Type = 0xFFFFFFF2)
T5F78 000:794.355 - 0.020ms returns 0x0000000B
T5F78 000:794.369 JLINK_Go()
T5F78 000:794.397   CPU_ReadMem(4 bytes @ 0xE0001000)
T5F78 000:800.056 - 5.729ms
T5F78 000:800.114 JLINK_IsHalted()
T5F78 000:800.941 - 0.863ms returns FALSE
T5F78 000:800.995 JLINK_HasError()
T5F78 000:808.497 JLINK_IsHalted()
T5F78 000:813.700   CPU_ReadMem(2 bytes @ 0x20000000)
T5F78 000:814.794 - 6.337ms returns TRUE
T5F78 000:814.885 JLINK_ReadReg(R15 (PC))
T5F78 000:814.918 - 0.039ms returns 0x20000000
T5F78 000:814.942 JLINK_ClrBPEx(BPHandle = 0x0000000B)
T5F78 000:814.958 - 0.021ms returns 0x00
T5F78 000:814.979 JLINK_ReadReg(R0)
T5F78 000:814.993 - 0.020ms returns 0x00000000
T5F78 000:816.536 JLINK_WriteMem(0x20000188, 0x278 Bytes, ...)
T5F78 000:816.572   Data:  C6 E5 1A 48 00 1D 06 68 A0 69 01 28 27 D0 06 F4 ...
T5F78 000:816.608   CPU_WriteMem(632 bytes @ 0x20000188)
T5F78 000:822.087 - 5.591ms returns 0x278
T5F78 000:822.145 JLINK_WriteMem(0x20000400, 0x188 Bytes, ...)
T5F78 000:822.160   Data:  06 2A 0C D0 08 68 00 68 40 F0 01 00 0B 68 18 60 ...
T5F78 000:822.198   CPU_WriteMem(392 bytes @ 0x20000400)
T5F78 000:825.913 - 3.809ms returns 0x188
T5F78 000:825.972 JLINK_HasError()
T5F78 000:825.989 JLINK_WriteReg(R0, 0x08001C00)
T5F78 000:826.011 - 0.028ms returns 0
T5F78 000:826.025 JLINK_WriteReg(R1, 0x00000400)
T5F78 000:826.038 - 0.018ms returns 0
T5F78 000:826.052 JLINK_WriteReg(R2, 0x20000188)
T5F78 000:826.064 - 0.018ms returns 0
T5F78 000:826.077 JLINK_WriteReg(R3, 0x00000000)
T5F78 000:826.090 - 0.018ms returns 0
T5F78 000:826.103 JLINK_WriteReg(R4, 0x00000000)
T5F78 000:826.116 - 0.019ms returns 0
T5F78 000:826.130 JLINK_WriteReg(R5, 0x00000000)
T5F78 000:826.142 - 0.017ms returns 0
T5F78 000:826.155 JLINK_WriteReg(R6, 0x00000000)
T5F78 000:826.177 - 0.032ms returns 0
T5F78 000:826.196 JLINK_WriteReg(R7, 0x00000000)
T5F78 000:826.208 - 0.018ms returns 0
T5F78 000:826.221 JLINK_WriteReg(R8, 0x00000000)
T5F78 000:826.233 - 0.018ms returns 0
T5F78 000:826.247 JLINK_WriteReg(R9, 0x20000184)
T5F78 000:826.259 - 0.017ms returns 0
T5F78 000:826.272 JLINK_WriteReg(R10, 0x00000000)
T5F78 000:826.284 - 0.018ms returns 0
T5F78 000:826.298 JLINK_WriteReg(R11, 0x00000000)
T5F78 000:826.310 - 0.018ms returns 0
T5F78 000:826.323 JLINK_WriteReg(R12, 0x00000000)
T5F78 000:826.335 - 0.017ms returns 0
T5F78 000:826.348 JLINK_WriteReg(R13 (SP), 0x20001000)
T5F78 000:826.362 - 0.018ms returns 0
T5F78 000:826.375 JLINK_WriteReg(R14, 0x20000001)
T5F78 000:826.387 - 0.018ms returns 0
T5F78 000:826.401 JLINK_WriteReg(R15 (PC), 0x20000112)
T5F78 000:826.413 - 0.018ms returns 0
T5F78 000:826.426 JLINK_WriteReg(XPSR, 0x01000000)
T5F78 000:826.438 - 0.018ms returns 0
T5F78 000:826.452 JLINK_WriteReg(MSP, 0x20001000)
T5F78 000:826.464 - 0.017ms returns 0
T5F78 000:826.477 JLINK_WriteReg(PSP, 0x20001000)
T5F78 000:826.489 - 0.017ms returns 0
T5F78 000:826.502 JLINK_WriteReg(CFBP, 0x00000000)
T5F78 000:826.515 - 0.018ms returns 0
T5F78 000:826.528 JLINK_SetBPEx(Addr = 0x20000000, Type = 0xFFFFFFF2)
T5F78 000:826.542 - 0.020ms returns 0x0000000C
T5F78 000:826.556 JLINK_Go()
T5F78 000:826.583   CPU_ReadMem(4 bytes @ 0xE0001000)
T5F78 000:832.457 - 5.944ms
T5F78 000:832.517 JLINK_IsHalted()
T5F78 000:833.314 - 0.829ms returns FALSE
T5F78 000:833.361 JLINK_HasError()
T5F78 000:836.986 JLINK_IsHalted()
T5F78 000:842.209   CPU_ReadMem(2 bytes @ 0x20000000)
T5F78 000:843.085 - 6.129ms returns TRUE
T5F78 000:843.163 JLINK_ReadReg(R15 (PC))
T5F78 000:843.194 - 0.037ms returns 0x20000000
T5F78 000:843.295 JLINK_ClrBPEx(BPHandle = 0x0000000C)
T5F78 000:843.337 - 0.048ms returns 0x00
T5F78 000:843.353 JLINK_ReadReg(R0)
T5F78 000:843.367 - 0.020ms returns 0x00000000
T5F78 000:844.542 JLINK_WriteMem(0x20000188, 0x278 Bytes, ...)
T5F78 000:844.573   Data:  01 00 08 60 08 46 00 68 00 F0 01 00 01 90 00 BF ...
T5F78 000:844.606   CPU_WriteMem(632 bytes @ 0x20000188)
T5F78 000:850.083 - 5.582ms returns 0x278
T5F78 000:850.141 JLINK_WriteMem(0x20000400, 0x188 Bytes, ...)
T5F78 000:850.155   Data:  57 F8 08 B1 FE F7 8F F8 13 B0 00 BD 40 38 02 40 ...
T5F78 000:850.191   CPU_WriteMem(392 bytes @ 0x20000400)
T5F78 000:853.889 - 3.787ms returns 0x188
T5F78 000:853.947 JLINK_HasError()
T5F78 000:853.964 JLINK_WriteReg(R0, 0x08002000)
T5F78 000:853.984 - 0.026ms returns 0
T5F78 000:853.998 JLINK_WriteReg(R1, 0x00000400)
T5F78 000:854.012 - 0.019ms returns 0
T5F78 000:854.025 JLINK_WriteReg(R2, 0x20000188)
T5F78 000:854.038 - 0.018ms returns 0
T5F78 000:854.051 JLINK_WriteReg(R3, 0x00000000)
T5F78 000:854.063 - 0.017ms returns 0
T5F78 000:854.076 JLINK_WriteReg(R4, 0x00000000)
T5F78 000:854.088 - 0.018ms returns 0
T5F78 000:854.102 JLINK_WriteReg(R5, 0x00000000)
T5F78 000:854.114 - 0.018ms returns 0
T5F78 000:854.127 JLINK_WriteReg(R6, 0x00000000)
T5F78 000:854.139 - 0.017ms returns 0
T5F78 000:854.152 JLINK_WriteReg(R7, 0x00000000)
T5F78 000:854.165 - 0.018ms returns 0
T5F78 000:854.178 JLINK_WriteReg(R8, 0x00000000)
T5F78 000:854.190 - 0.018ms returns 0
T5F78 000:854.203 JLINK_WriteReg(R9, 0x20000184)
T5F78 000:854.215 - 0.017ms returns 0
T5F78 000:854.228 JLINK_WriteReg(R10, 0x00000000)
T5F78 000:854.240 - 0.017ms returns 0
T5F78 000:854.254 JLINK_WriteReg(R11, 0x00000000)
T5F78 000:854.266 - 0.017ms returns 0
T5F78 000:854.279 JLINK_WriteReg(R12, 0x00000000)
T5F78 000:854.291 - 0.018ms returns 0
T5F78 000:854.304 JLINK_WriteReg(R13 (SP), 0x20001000)
T5F78 000:854.318 - 0.019ms returns 0
T5F78 000:854.331 JLINK_WriteReg(R14, 0x20000001)
T5F78 000:854.344 - 0.018ms returns 0
T5F78 000:854.357 JLINK_WriteReg(R15 (PC), 0x20000112)
T5F78 000:854.370 - 0.018ms returns 0
T5F78 000:854.383 JLINK_WriteReg(XPSR, 0x01000000)
T5F78 000:854.395 - 0.017ms returns 0
T5F78 000:854.408 JLINK_WriteReg(MSP, 0x20001000)
T5F78 000:854.420 - 0.027ms returns 0
T5F78 000:854.448 JLINK_WriteReg(PSP, 0x20001000)
T5F78 000:854.460 - 0.018ms returns 0
T5F78 000:854.474 JLINK_WriteReg(CFBP, 0x00000000)
T5F78 000:854.486 - 0.017ms returns 0
T5F78 000:854.499 JLINK_SetBPEx(Addr = 0x20000000, Type = 0xFFFFFFF2)
T5F78 000:854.515 - 0.021ms returns 0x0000000D
T5F78 000:854.528 JLINK_Go()
T5F78 000:854.556   CPU_ReadMem(4 bytes @ 0xE0001000)
T5F78 000:860.090 - 5.604ms
T5F78 000:860.149 JLINK_IsHalted()
T5F78 000:861.151 - 1.043ms returns FALSE
T5F78 000:861.210 JLINK_HasError()
T5F78 000:868.960 JLINK_IsHalted()
T5F78 000:873.806   CPU_ReadMem(2 bytes @ 0x20000000)
T5F78 000:874.855 - 5.929ms returns TRUE
T5F78 000:874.906 JLINK_ReadReg(R15 (PC))
T5F78 000:874.928 - 0.028ms returns 0x20000000
T5F78 000:874.942 JLINK_ClrBPEx(BPHandle = 0x0000000D)
T5F78 000:874.955 - 0.019ms returns 0x00
T5F78 000:874.969 JLINK_ReadReg(R0)
T5F78 000:874.982 - 0.018ms returns 0x00000000
T5F78 000:876.108 JLINK_WriteMem(0x20000188, 0x278 Bytes, ...)
T5F78 000:876.136   Data:  30 BD 2D E9 D0 43 90 B0 81 46 0E 46 17 46 98 46 ...
T5F78 000:876.168   CPU_WriteMem(632 bytes @ 0x20000188)
T5F78 000:881.678 - 5.611ms returns 0x278
T5F78 000:881.737 JLINK_WriteMem(0x20000400, 0x188 Bytes, ...)
T5F78 000:881.751   Data:  01 DD 01 20 F0 E7 00 20 01 90 02 90 02 20 06 90 ...
T5F78 000:881.788   CPU_WriteMem(392 bytes @ 0x20000400)
T5F78 000:885.613 - 3.907ms returns 0x188
T5F78 000:885.661 JLINK_HasError()
T5F78 000:885.679 JLINK_WriteReg(R0, 0x08002400)
T5F78 000:885.699 - 0.026ms returns 0
T5F78 000:885.714 JLINK_WriteReg(R1, 0x00000400)
T5F78 000:885.727 - 0.019ms returns 0
T5F78 000:885.740 JLINK_WriteReg(R2, 0x20000188)
T5F78 000:885.753 - 0.018ms returns 0
T5F78 000:885.766 JLINK_WriteReg(R3, 0x00000000)
T5F78 000:885.778 - 0.018ms returns 0
T5F78 000:885.792 JLINK_WriteReg(R4, 0x00000000)
